;$FILEVERSION=1.3
;$STARTTIME=44333.6812228835
;
;   C:\Users\dpicker\Desktop\TraceZG_Vario mit Easy.trc
;   Start time: 17.05.2021 16:20:57.657.1
;-------------------------------------------------------------------------------
;   Bus  Name         Connection          Protocol  Bit rate
;   1    Verbindung1  Unbenannt@pcan_usb  CAN       250 kbit/s
;-------------------------------------------------------------------------------
;   Message Number
;   |         Time Offset (ms)
;   |         |       Bus
;   |         |       |    Type
;   |         |       |    |       ID (hex)
;   |         |       |    |       |    Reserved
;   |         |       |    |       |    |   Data Length Code
;   |         |       |    |       |    |   |    Data Bytes (hex) ...
;   |         |       |    |       |    |   |    |
;   |         |       |    |       |    |   |    |
;---+-- ------+------ +- --+-- ----+--- +- -+-- -+ -- -- -- -- -- -- --
     1)         3.924 1  Rx        0201 -  8    00 00 00 00 00 00 00 00 
     2)         4.393 1  Rx        0202 -  7    00 00 00 00 00 00 01 
     3)         4.948 1  Rx        0300 -  8    00 00 00 00 00 00 00 00 
     4)         5.289 1  Rx        0301 -  4    00 00 00 00 
     5)         7.380 1  Rx        0333 -  8    00 00 6B 0E 00 00 00 00 
     6)        13.950 1  Rx        0201 -  8    00 00 00 00 00 00 00 00 
     7)        14.377 1  Rx        0202 -  7    00 00 00 00 00 00 01 
     8)        14.889 1  Rx        0344 -  8    00 02 FA 01 57 0E 00 00 
     9)        15.358 1  Rx        0300 -  8    00 00 00 00 00 00 00 00 
    10)        15.742 1  Rx        0301 -  4    00 00 00 00 
    11)        23.934 1  Rx        0201 -  8    00 00 00 00 00 00 00 00 
    12)        24.403 1  Rx        0202 -  7    00 00 00 00 00 00 01 
    13)        24.915 1  Rx        0300 -  8    00 00 00 00 00 00 00 00 
    14)        25.299 1  Rx        0301 -  4    00 00 00 00 
    15)        28.968 1  Rx        0312 -  8    44 10 C8 0C 00 00 00 00 
    16)        33.917 1  Rx        0201 -  8    00 00 00 00 00 00 00 00 
    17)        34.387 1  Rx        0202 -  7    00 00 00 00 00 00 01 
    18)        34.941 1  Rx        0300 -  8    00 00 00 00 00 00 00 00 
    19)        35.283 1  Rx        0301 -  4    00 00 00 00 
    20)        39.848 1  Rx        0322 -  8    00 00 00 00 00 00 00 00 
    21)        43.944 1  Rx        0201 -  8    00 00 00 00 00 00 00 00 
    22)        44.413 1  Rx        0202 -  7    00 00 00 00 00 00 01 
    23)        44.968 1  Rx    1CEFA0C1 00 8    08 BC F9 00 00 2A 00 E0 
    24)        45.479 1  Rx        0300 -  8    00 00 00 00 00 00 00 00 
    25)        45.821 1  Rx        0301 -  4    00 00 00 00 
    26)        53.927 1  Rx        0201 -  8    00 00 00 00 00 00 00 00 
    27)        54.396 1  Rx        0202 -  7    00 00 00 00 00 00 01 
    28)        54.951 1  Rx        0300 -  8    00 00 00 00 00 00 00 00 
    29)        55.292 1  Rx        0301 -  4    00 00 00 00 
    30)        60.882 1  Rx    1CEFA0C0 00 8    08 FA 04 00 00 25 00 E0 
    31)        63.911 1  Rx        0201 -  8    00 00 00 00 00 00 00 00 
    32)        64.380 1  Rx        0202 -  7    00 00 00 00 00 00 01 
    33)        64.892 1  Rx        0344 -  8    03 02 FA 01 57 0E 00 00 
    34)        65.361 1  Rx        0300 -  8    00 00 00 00 00 00 00 00 
    35)        65.745 1  Rx        0301 -  4    00 00 00 00 
    36)        73.937 1  Rx        0201 -  8    00 00 00 00 00 00 00 00 
    37)        74.406 1  Rx        0202 -  7    00 00 00 00 00 00 01 
    38)        74.918 1  Rx        0300 -  8    00 00 00 00 00 00 00 00 
    39)        75.302 1  Rx        0301 -  4    00 00 00 00 
    40)        83.921 1  Rx        0201 -  8    00 00 00 00 00 00 00 00 
    41)        84.390 1  Rx        0202 -  7    00 00 00 00 00 00 01 
    42)        84.945 1  Rx        0300 -  8    00 00 00 00 00 00 00 00 
    43)        85.286 1  Rx        0301 -  4    00 00 00 00 
    44)        93.947 1  Rx        0201 -  8    00 00 00 00 00 00 00 00 
    45)        94.374 1  Rx        0202 -  7    00 00 00 00 00 00 01 
    46)        94.886 1  Rx        0312 -  8    3E 10 C8 0C 00 00 00 00 
    47)        95.398 1  Rx        0300 -  8    00 00 00 00 00 00 00 00 
    48)        95.739 1  Rx        0301 -  4    00 00 00 00 
    49)       103.931 1  Rx        0201 -  8    00 00 00 00 00 00 00 00 
    50)       104.400 1  Rx        0202 -  7    00 00 00 00 00 00 01 
    51)       104.912 1  Rx        0300 -  8    00 00 00 00 00 00 00 00 
    52)       105.296 1  Rx        0301 -  4    00 00 00 00 
    53)       105.978 1  Rx        0333 -  8    00 00 68 0E 00 00 00 00 
    54)       113.914 1  Rx        0201 -  8    00 00 00 00 00 00 00 00 
    55)       114.383 1  Rx        0202 -  7    00 00 00 00 00 00 01 
    56)       114.938 1  Rx        0300 -  8    00 00 00 00 00 00 00 00 
    57)       115.279 1  Rx        0301 -  4    00 00 00 00 
    58)       123.940 1  Rx        0201 -  8    00 00 00 00 00 00 00 00 
    59)       124.410 1  Rx        0202 -  7    00 00 00 00 00 00 01 
    60)       124.922 1  Rx        0300 -  8    00 00 00 00 00 00 00 00 
    61)       125.263 1  Rx        0301 -  4    00 00 00 00 
    62)       133.924 1  Rx        0201 -  8    00 00 00 00 00 00 00 00 
    63)       134.393 1  Rx        0202 -  7    00 00 00 00 00 00 01 
    64)       134.948 1  Rx        0300 -  8    00 00 00 00 00 00 00 00 
    65)       135.289 1  Rx        0301 -  4    00 00 00 00 
    66)       143.908 1  Rx        0201 -  8    00 00 00 00 00 00 00 00 
    67)       144.377 1  Rx        0202 -  7    00 00 00 00 00 00 01 
    68)       144.974 1  Rx    1CEFA0C1 00 8    08 BC F9 00 00 2A 00 E0 
    69)       145.444 1  Rx        0300 -  8    00 00 00 00 00 00 00 00 
    70)       145.828 1  Rx        0301 -  4    00 00 00 00 
    71)       146.297 1  Rx        0312 -  8    4A 10 C8 0C 00 00 00 00 
    72)       146.766 1  Rx        0322 -  8    00 00 00 00 00 00 00 00 
    73)       153.934 1  Rx        0201 -  8    00 00 00 00 00 00 00 00 
    74)       154.403 1  Rx        0202 -  7    00 00 00 00 00 00 01 
    75)       154.915 1  Rx        0300 -  8    00 00 00 00 00 00 00 00 
    76)       155.299 1  Rx        0301 -  4    00 00 00 00 
    77)       157.987 1  Rx        0333 -  8    00 00 6B 0E 00 00 00 00 
    78)       158.456 1  Rx        0344 -  8    FD 01 FD 01 57 0E 00 00 
    79)       160.974 1  Rx    1CEFA0C0 00 8    08 FA 04 00 00 25 00 E0 
    80)       163.918 1  Rx        0201 -  8    00 00 00 00 00 00 00 00 
    81)       164.387 1  Rx        0202 -  7    00 00 00 00 00 00 01 
    82)       164.941 1  Rx        0300 -  8    00 00 00 00 00 00 00 00 
    83)       165.283 1  Rx        0301 -  4    00 00 00 00 
    84)       173.944 1  Rx        0201 -  8    00 00 00 00 00 00 00 00 
    85)       174.370 1  Rx        0202 -  7    00 00 00 00 00 00 01 
    86)       174.925 1  Rx        0300 -  8    00 00 00 00 00 00 00 00 
    87)       175.266 1  Rx        0301 -  4    00 00 00 00 
    88)       183.927 1  Rx        0201 -  8    00 00 00 00 00 00 00 00 
    89)       184.397 1  Rx        0202 -  7    00 00 00 00 00 00 01 
    90)       184.909 1  Rx        0300 -  8    00 00 00 00 00 00 00 00 
    91)       185.293 1  Rx        0301 -  4    00 00 00 00 
    92)       193.911 1  Rx        0201 -  8    00 00 00 00 00 00 00 00 
    93)       194.380 1  Rx        0202 -  7    00 00 00 00 00 00 01 
    94)       194.935 1  Rx        0300 -  8    00 00 00 00 00 00 00 00 
    95)       195.276 1  Rx        0301 -  4    00 00 00 00 
    96)       197.879 1  Rx        0312 -  8    3E 10 C8 0C 00 00 00 00 
    97)       203.937 1  Rx        0201 -  8    00 00 00 00 00 00 00 00 
    98)       204.407 1  Rx        0202 -  7    00 00 00 00 00 00 01 
    99)       204.919 1  Rx        0300 -  8    00 00 00 00 00 00 00 00 
   100)       205.260 1  Rx        0301 -  4    00 00 00 00 
   101)       209.996 1  Rx        0333 -  8    00 00 68 0E 00 00 00 00 
   102)       210.465 1  Rx        0344 -  8    00 02 FD 01 57 0E 00 00 
   103)       213.921 1  Rx        0201 -  8    00 00 00 00 00 00 00 00 
   104)       214.390 1  Rx        0202 -  7    00 00 00 00 00 00 01 
   105)       214.945 1  Rx        0300 -  8    00 00 00 00 00 00 00 00 
   106)       215.286 1  Rx        0301 -  4    00 00 00 00 
   107)       223.905 1  Rx        0201 -  8    00 00 00 00 00 00 00 00 
   108)       224.374 1  Rx        0202 -  7    00 00 00 00 00 00 01 
   109)       224.928 1  Rx        0300 -  8    00 00 00 00 00 00 00 00 
   110)       225.270 1  Rx        0301 -  4    00 00 00 00 
   111)       233.931 1  Rx        0201 -  8    00 00 00 00 00 00 00 00 
   112)       234.400 1  Rx        0202 -  7    00 00 00 00 00 00 01 
   113)       234.912 1  Rx        0300 -  8    00 00 00 00 00 00 00 00 
   114)       235.296 1  Rx        0301 -  4    00 00 00 00 
   115)       243.914 1  Rx        0201 -  8    00 00 00 00 00 00 00 00 
   116)       244.384 1  Rx        0202 -  7    00 00 00 00 00 00 01 
   117)       244.938 1  Rx    1CEFA0C1 00 8    08 BC F9 00 00 2A 00 E0 
   118)       245.450 1  Rx        0300 -  8    00 00 00 00 00 00 00 00 
   119)       245.792 1  Rx        0301 -  4    00 00 00 00 
   120)       250.357 1  Rx        0322 -  8    00 00 00 00 00 00 00 00 
   121)       253.941 1  Rx        0201 -  8    00 00 00 00 00 00 00 00 
   122)       254.367 1  Rx        0202 -  7    00 00 00 00 00 00 01 
   123)       254.922 1  Rx        0300 -  8    00 00 00 00 00 00 00 00 
   124)       255.263 1  Rx        0301 -  4    00 00 00 00 
   125)       260.383 1  Rx        0333 -  8    00 00 6B 0E 00 00 00 00 
   126)       260.852 1  Rx        0344 -  8    03 02 FD 01 57 0E 00 00 
   127)       261.450 1  Rx    1CEFA0C0 00 8    08 FA 04 00 00 25 00 E0 
   128)       263.924 1  Rx        0201 -  8    00 00 00 00 00 00 00 00 
   129)       264.394 1  Rx        0202 -  7    00 00 00 00 00 00 01 
   130)       264.906 1  Rx        0300 -  8    00 00 00 00 00 00 00 00 
   131)       265.290 1  Rx        0301 -  4    00 00 00 00 
   132)       267.807 1  Rx        0312 -  8    44 10 C8 0C 00 00 00 00 
   133)       273.908 1  Rx        0201 -  8    00 00 00 00 00 00 00 00 
   134)       274.377 1  Rx        0202 -  7    00 00 00 00 00 00 01 
   135)       274.932 1  Rx        0300 -  8    00 00 00 00 00 00 00 00 
   136)       275.273 1  Rx        0301 -  4    00 00 00 00 
   137)       283.934 1  Rx        0201 -  8    00 00 00 00 00 00 00 00 
   138)       284.403 1  Rx        0202 -  7    00 00 00 00 00 00 01 
   139)       284.915 1  Rx        0300 -  8    00 00 00 00 00 00 00 00 
   140)       285.257 1  Rx        0301 -  4    00 00 00 00 
   141)       293.918 1  Rx        0201 -  8    00 00 00 00 00 00 00 00 
   142)       294.387 1  Rx        0202 -  7    00 00 00 00 00 00 01 
   143)       294.942 1  Rx        0300 -  8    00 00 00 00 00 00 00 00 
   144)       295.283 1  Rx        0301 -  4    00 00 00 00 
   145)       303.901 1  Rx        0201 -  8    00 00 00 00 00 00 00 00 
   146)       304.371 1  Rx        0202 -  7    00 00 00 00 00 00 01 
   147)       304.925 1  Rx        0300 -  8    00 00 00 00 00 00 00 00 
   148)       305.267 1  Rx        0301 -  4    00 00 00 00 
   149)       310.429 1  Rx        0333 -  8    00 00 68 0E 00 00 00 00 
   150)       310.898 1  Rx        0344 -  8    FD 01 FD 01 57 0E 00 00 
   151)       313.928 1  Rx        0201 -  8    00 00 00 00 00 00 00 00 
   152)       314.397 1  Rx        0202 -  7    00 00 00 00 00 00 01 
   153)       314.909 1  Rx        0300 -  8    00 00 00 00 00 00 00 00 
   154)       315.293 1  Rx        0301 -  4    00 00 00 00 
   155)       317.426 1  Rx        0312 -  8    44 10 CE 0C 00 00 00 00 
   156)       323.911 1  Rx        0201 -  8    00 00 00 00 00 00 00 00 
   157)       324.381 1  Rx        0202 -  7    00 00 00 00 00 00 01 
   158)       324.935 1  Rx        0300 -  8    00 00 00 00 00 00 00 00 
   159)       325.277 1  Rx        0301 -  4    00 00 00 00 
   160)       333.938 1  Rx        0201 -  8    00 00 00 00 00 00 00 00 
   161)       334.364 1  Rx        0202 -  7    00 00 00 00 00 00 01 
   162)       334.919 1  Rx        0300 -  8    00 00 00 00 00 00 00 00 
   163)       335.260 1  Rx        0301 -  4    00 00 00 00 
   164)       343.921 1  Rx        0201 -  8    00 00 00 00 00 00 00 00 
   165)       344.390 1  Rx        0202 -  7    00 00 00 00 00 00 01 
   166)       344.945 1  Rx    1CEFA0C1 00 8    08 BD F9 00 00 2A 00 E0 
   167)       345.457 1  Rx        0300 -  8    00 00 00 00 00 00 00 00 
   168)       345.798 1  Rx        0301 -  4    00 00 00 00 
   169)       353.905 1  Rx        0201 -  8    00 00 00 00 00 00 00 00 
   170)       354.374 1  Rx        0202 -  7    00 00 00 00 00 00 01 
   171)       354.886 1  Rx        0322 -  8    00 00 00 00 00 00 00 00 
   172)       355.398 1  Rx        0300 -  8    00 00 00 00 00 00 00 00 
   173)       355.739 1  Rx        0301 -  4    00 00 00 00 
   174)       361.158 1  Rx    1CEFA0C0 00 8    08 FA 04 00 00 25 00 E0 
   175)       363.078 1  Rx        0333 -  8    00 00 6B 0E 00 00 00 00 
   176)       363.547 1  Rx        0344 -  8    03 02 FD 01 57 0E 00 00 
   177)       364.016 1  Rx        0201 -  8    00 00 00 00 00 00 00 00 
   178)       364.486 1  Rx        0202 -  7    00 00 00 00 00 00 01 
   179)       364.998 1  Rx        0300 -  8    00 00 00 00 00 00 00 00 
   180)       365.339 1  Rx        0301 -  4    00 00 00 00 
   181)       367.899 1  Rx        0312 -  8    3E 10 CE 0C 00 00 00 00 
   182)       373.915 1  Rx        0201 -  8    00 00 00 00 00 00 00 00 
   183)       374.384 1  Rx        0202 -  7    00 00 00 00 00 00 01 
   184)       374.939 1  Rx        0300 -  8    00 00 00 00 00 00 00 00 
   185)       375.280 1  Rx        0301 -  4    00 00 00 00 
   186)       383.898 1  Rx        0201 -  8    00 00 00 00 00 00 00 00 
   187)       384.368 1  Rx        0202 -  7    00 00 00 00 00 00 01 
   188)       384.922 1  Rx        0300 -  8    00 00 00 00 00 00 00 00 
   189)       385.264 1  Rx        0301 -  4    00 00 00 00 
   190)       393.925 1  Rx        0201 -  8    00 00 00 00 00 00 00 00 
   191)       394.394 1  Rx        0202 -  7    00 00 00 00 00 00 01 
   192)       394.906 1  Rx        0300 -  8    00 00 00 00 00 00 00 00 
   193)       395.290 1  Rx        0301 -  4    00 00 00 00 
   194)       403.908 1  Rx        0201 -  8    00 00 00 00 00 00 00 00 
   195)       404.377 1  Rx        0202 -  7    00 00 00 00 00 00 01 
   196)       404.932 1  Rx        0300 -  8    00 00 00 00 00 00 00 00 
   197)       405.273 1  Rx        0301 -  4    00 00 00 00 
   198)       413.721 1  Rx        0344 -  8    00 02 FD 01 57 0E 00 00 
   199)       414.190 1  Rx        0201 -  8    00 00 00 00 00 00 00 00 
   200)       414.660 1  Rx        0202 -  7    00 00 00 00 00 00 01 
   201)       415.172 1  Rx        0300 -  8    00 00 00 00 00 00 00 00 
   202)       415.513 1  Rx        0301 -  4    00 00 00 00 
   203)       419.438 1  Rx        0312 -  8    3E 10 C8 0C 00 00 00 00 
   204)       423.918 1  Rx        0201 -  8    00 00 00 00 00 00 00 00 
   205)       424.387 1  Rx        0202 -  7    00 00 00 00 00 00 01 
   206)       424.942 1  Rx        0300 -  8    00 00 00 00 00 00 00 00 
   207)       425.283 1  Rx        0301 -  4    00 00 00 00 
   208)       433.902 1  Rx        0201 -  8    00 00 00 00 00 00 00 00 
   209)       434.371 1  Rx        0202 -  7    00 00 00 00 00 00 01 
   210)       434.926 1  Rx        0300 -  8    00 00 00 00 00 00 00 00 
   211)       435.267 1  Rx        0301 -  4    00 00 00 00 
   212)       443.928 1  Rx        0201 -  8    00 00 00 00 00 00 00 00 
   213)       444.397 1  Rx        0202 -  7    00 00 00 00 00 00 01 
   214)       444.952 1  Rx    1CEFA0C1 00 8    08 BD F9 00 00 2A 00 E0 
   215)       445.464 1  Rx        0300 -  8    00 00 00 00 00 00 00 00 
   216)       445.805 1  Rx        0301 -  4    00 00 00 00 
   217)       453.912 1  Rx        0201 -  8    00 00 00 00 00 00 00 00 
   218)       454.381 1  Rx        0202 -  7    00 00 00 00 00 00 01 
   219)       454.893 1  Rx        0322 -  8    00 00 00 00 00 00 00 00 
   220)       455.362 1  Rx        0300 -  8    00 00 00 00 00 00 00 00 
   221)       455.746 1  Rx        0301 -  4    00 00 00 00 
   222)       461.250 1  Rx    1CEFA0C0 00 8    08 FA 04 00 00 25 00 E0 
   223)       463.596 1  Rx        0333 -  8    00 00 6B 0E 00 00 00 00 
   224)       464.108 1  Rx        0201 -  8    00 00 00 00 00 00 00 00 
   225)       464.578 1  Rx        0202 -  7    00 00 00 00 00 00 01 
   226)       465.047 1  Rx        0300 -  8    00 00 00 00 00 00 00 00 
   227)       465.431 1  Rx        0301 -  4    00 00 00 00 
   228)       473.921 1  Rx        0201 -  8    00 00 00 00 00 00 00 00 
   229)       474.391 1  Rx        0202 -  7    00 00 00 00 00 00 01 
   230)       474.903 1  Rx        0300 -  8    00 00 00 00 00 00 00 00 
   231)       475.287 1  Rx        0301 -  4    00 00 00 00 
   232)       483.905 1  Rx        0201 -  8    00 00 00 00 00 00 00 00 
   233)       484.374 1  Rx        0202 -  7    00 00 00 00 00 00 01 
   234)       484.844 1  Rx        0312 -  8    4A 10 CE 0C 00 00 00 00 
   235)       485.356 1  Rx        0300 -  8    00 00 00 00 00 00 00 00 
   236)       485.697 1  Rx        0301 -  4    00 00 00 00 
   237)       493.931 1  Rx        0201 -  8    00 00 00 00 00 00 00 00 
   238)       494.358 1  Rx        0202 -  7    00 00 00 00 00 00 01 
   239)       494.913 1  Rx        0300 -  8    00 00 00 00 00 00 00 00 
   240)       495.254 1  Rx        0301 -  4    00 00 00 00 
   241)       503.915 1  Rx        0201 -  8    00 00 00 00 00 00 00 00 
   242)       504.384 1  Rx        0202 -  7    00 00 00 00 00 00 01 
   243)       504.896 1  Rx        0300 -  8    00 00 00 00 00 00 00 00 
   244)       505.280 1  Rx        0301 -  4    00 00 00 00 
   245)       508.779 1  Rx        0344 -  8    03 02 FD 01 57 0E 00 00 
   246)       513.899 1  Rx        0201 -  8    00 00 00 00 00 00 00 00 
   247)       514.368 1  Rx        0202 -  7    00 00 00 00 00 00 01 
   248)       514.922 1  Rx        0300 -  8    00 00 00 00 00 00 00 00 
   249)       515.264 1  Rx        0301 -  4    00 00 00 00 
   250)       523.925 1  Rx        0201 -  8    00 00 00 00 00 00 00 00 
   251)       524.394 1  Rx        0202 -  7    00 00 00 00 00 00 01 
   252)       524.906 1  Rx        0300 -  8    00 00 00 00 00 00 00 00 
   253)       525.290 1  Rx        0301 -  4    00 00 00 00 
   254)       533.908 1  Rx        0201 -  8    00 00 00 00 00 00 00 00 
   255)       534.378 1  Rx        0202 -  7    00 00 00 00 00 00 01 
   256)       534.932 1  Rx        0300 -  8    00 00 00 00 00 00 00 00 
   257)       535.274 1  Rx        0301 -  4    00 00 00 00 
   258)       537.663 1  Rx        0312 -  8    4A 10 C8 0C 00 00 00 00 
   259)       543.892 1  Rx        0201 -  8    00 00 00 00 00 00 00 00 
   260)       544.361 1  Rx        0202 -  7    00 00 00 00 00 00 01 
   261)       544.916 1  Rx        0300 -  8    00 00 00 00 00 00 00 00 
   262)       545.257 1  Rx        0301 -  4    00 00 00 00 
   263)       545.855 1  Rx    1CEFA0C1 00 8    08 BD F9 00 00 2A 00 E0 
   264)       553.918 1  Rx        0201 -  8    00 00 00 00 00 00 00 00 
   265)       554.388 1  Rx        0202 -  7    00 00 00 00 00 00 01 
   266)       554.900 1  Rx        0300 -  8    00 00 00 00 00 00 00 00 
   267)       555.284 1  Rx        0301 -  4    00 00 00 00 
   268)       557.289 1  Rx        0322 -  8    00 00 00 00 00 00 00 00 
   269)       561.342 1  Rx    1CEFA0C0 00 8    08 FA 04 00 00 25 00 E0 
   270)       561.939 1  Rx        0344 -  8    00 02 FA 01 57 0E 00 00 
   271)       563.902 1  Rx        0201 -  8    00 00 00 00 00 00 00 00 
   272)       564.371 1  Rx        0202 -  7    00 00 00 00 00 00 01 
   273)       564.841 1  Rx        0333 -  8    00 00 6B 0E 00 00 00 00 
   274)       565.353 1  Rx        0300 -  8    00 00 00 00 00 00 00 00 
   275)       565.694 1  Rx        0301 -  4    00 00 00 00 
   276)       573.928 1  Rx        0201 -  8    00 00 00 00 00 00 00 00 
   277)       574.355 1  Rx        0202 -  7    00 00 00 00 00 00 01 
   278)       574.909 1  Rx        0300 -  8    00 00 00 00 00 00 00 00 
   279)       575.251 1  Rx        0301 -  4    00 00 00 00 
   280)       583.942 1  Rx        0201 -  8    00 00 00 00 00 00 00 00 
   281)       584.411 1  Rx        0202 -  7    00 00 00 00 00 00 01 
   282)       584.923 1  Rx        0300 -  8    00 00 00 00 00 00 00 00 
   283)       585.307 1  Rx        0301 -  4    00 00 00 00 
   284)       587.739 1  Rx        0312 -  8    44 10 C8 0C 00 00 00 00 
   285)       593.925 1  Rx        0201 -  8    00 00 00 00 00 00 00 00 
   286)       594.395 1  Rx        0202 -  7    00 00 00 00 00 00 01 
   287)       594.949 1  Rx        0300 -  8    00 00 00 00 00 00 00 00 
   288)       595.291 1  Rx        0301 -  4    00 00 00 00 
   289)       603.952 1  Rx        0201 -  8    00 00 00 00 00 00 00 00 
   290)       604.421 1  Rx        0202 -  7    00 00 00 00 00 00 01 
   291)       604.933 1  Rx        0300 -  8    00 00 00 00 00 00 00 00 
   292)       605.317 1  Rx        0301 -  4    00 00 00 00 
   293)       611.759 1  Rx        0344 -  8    FD 01 FD 01 57 0E 00 00 
   294)       613.935 1  Rx        0201 -  8    00 00 00 00 00 00 00 00 
   295)       614.405 1  Rx        0202 -  7    00 00 00 00 00 00 01 
   296)       614.959 1  Rx        0300 -  8    00 00 00 00 00 00 00 00 
   297)       615.301 1  Rx        0301 -  4    00 00 00 00 
   298)       615.813 1  Rx        0333 -  8    00 00 68 0E 00 00 00 00 
   299)       623.962 1  Rx        0201 -  8    00 00 00 00 00 00 00 00 
   300)       624.388 1  Rx        0202 -  7    00 00 00 00 00 00 01 
   301)       624.943 1  Rx        0300 -  8    00 00 00 00 00 00 00 00 
   302)       625.284 1  Rx        0301 -  4    00 00 00 00 
   303)       633.945 1  Rx        0201 -  8    00 00 00 00 00 00 00 00 
   304)       634.414 1  Rx        0202 -  7    00 00 00 00 00 00 01 
   305)       634.926 1  Rx        0300 -  8    00 00 00 00 00 00 00 00 
   306)       635.310 1  Rx        0301 -  4    00 00 00 00 
   307)       639.748 1  Rx        0312 -  8    3E 10 C8 0C 00 00 00 00 
   308)       643.929 1  Rx        0201 -  8    00 00 00 00 00 00 00 00 
   309)       644.398 1  Rx        0202 -  7    00 00 00 00 00 00 01 
   310)       644.953 1  Rx        0300 -  8    00 00 00 00 00 00 00 00 
   311)       645.294 1  Rx        0301 -  4    00 00 00 00 
   312)       645.849 1  Rx    1CEFA0C1 00 8    08 BD F9 00 00 2A 00 E0 
   313)       653.955 1  Rx        0201 -  8    00 00 00 00 00 00 00 00 
   314)       654.382 1  Rx        0202 -  7    00 00 00 00 00 00 01 
   315)       654.936 1  Rx        0300 -  8    00 00 00 00 00 00 00 00 
   316)       655.278 1  Rx        0301 -  4    00 00 00 00 
   317)       657.411 1  Rx        0322 -  8    00 00 00 00 00 00 00 00 
   318)       661.464 1  Rx    1CEFA0C0 00 8    08 FA 04 00 00 25 00 E0 
   319)       662.317 1  Rx        0344 -  8    00 02 FA 01 57 0E 00 00 
   320)       663.939 1  Rx        0201 -  8    00 00 00 00 00 00 00 00 
   321)       664.408 1  Rx        0202 -  7    00 00 00 00 00 00 01 
   322)       664.920 1  Rx        0300 -  8    00 00 00 00 00 00 00 00 
   323)       665.304 1  Rx        0301 -  4    00 00 00 00 
   324)       673.922 1  Rx        0201 -  8    00 00 00 00 00 00 00 00 
   325)       674.392 1  Rx        0202 -  7    00 00 00 00 00 00 01 
   326)       674.946 1  Rx        0300 -  8    00 00 00 00 00 00 00 00 
   327)       675.288 1  Rx        0301 -  4    00 00 00 00 
   328)       683.949 1  Rx        0201 -  8    00 00 00 00 00 00 00 00 
   329)       684.418 1  Rx        0202 -  7    00 00 00 00 00 00 01 
   330)       684.930 1  Rx        0300 -  8    00 00 00 00 00 00 00 00 
   331)       685.314 1  Rx        0301 -  4    00 00 00 00 
   332)       692.183 1  Rx        0312 -  8    44 10 CE 0C 00 00 00 00 
   333)       693.932 1  Rx        0201 -  8    00 00 00 00 00 00 00 00 
   334)       694.401 1  Rx        0202 -  7    00 00 00 00 00 00 01 
   335)       694.956 1  Rx        0300 -  8    00 00 00 00 00 00 00 00 
   336)       695.297 1  Rx        0301 -  4    00 00 00 00 
   337)       703.958 1  Rx        0201 -  8    00 00 00 00 00 00 00 00 
   338)       704.385 1  Rx        0202 -  7    00 00 00 00 00 00 01 
   339)       704.940 1  Rx        0300 -  8    00 00 00 00 00 00 00 00 
